T2FF0 000:005.237   SEGGER J-Link V7.84f Log File
T2FF0 000:005.354   DLL Compiled: Feb  7 2023 16:45:57
T2FF0 000:005.365   Logging started @ 2023-08-14 14:45
T2FF0 000:005.377 - 5.383ms
T2FF0 000:005.394 JLINK_SetWarnOutHandler(...)
T2FF0 000:005.406 - 0.018ms
T2FF0 000:005.418 JLINK_OpenEx(...)
T2FF0 000:007.080   Firmware: J-Link V9 compiled May  7 2021 16:26:12
T2FF0 000:007.371   Firmware: J-Link V9 compiled May  7 2021 16:26:12
T2FF0 000:007.659   Decompressing FW timestamp took 112 us
T2FF0 000:013.604   Hardware: V9.40
T2FF0 000:013.629   S/N: 59405175
T2FF0 000:013.646   OEM: SEGGER
T2FF0 000:013.662   Feature(s): RDI, GDB, FlashDL, FlashBP, JFlash
T2FF0 000:014.852   TELNET listener socket opened on port 19021
T2FF0 000:014.925   WEBSRV WEBSRV_Init(): Starting webserver thread(s)
T2FF0 000:015.019   WEBSRV Webserver running on local port 19080
T2FF0 000:031.194 - 25.799ms returns "O.K."
T2FF0 000:031.254 JLINK_GetEmuCaps()
T2FF0 000:031.266 - 0.017ms returns 0xB9FF7BBF
T2FF0 000:031.280 JLINK_TIF_GetAvailable(...)
T2FF0 000:031.528 - 0.264ms
T2FF0 000:031.560 JLINK_SetErrorOutHandler(...)
T2FF0 000:031.572 - 0.017ms
T2FF0 000:031.618 JLINK_ExecCommand("ProjectFile = "G:\2.4G Lora\Apollo3_Blue_public\AmbiqSuite_R3.0.0 - RAK3183\boards\RAK3183\examples\LoRaWAN_ISM2400\keil\JLinkSettings.ini"", ...). 
T2FF0 000:045.516   Ref file found at: F:\KEIL5\ARM\Segger\JLinkDevices.ref
T2FF0 000:045.594   REF file references invalid XML file: F:\SEGGER\JLink\JLinkDevices.xml
T2FF0 000:049.535   Device "AMA3B1KK-KBR" selected.
T2FF0 000:049.862 - 18.252ms returns 0x00
T2FF0 000:052.832 JLINK_ExecCommand("Device = AMA3B1KK-KBR", ...). 
T2FF0 000:056.462   Device "AMA3B1KK-KBR" selected.
T2FF0 000:056.823 - 3.979ms returns 0x00
T2FF0 000:056.849 JLINK_ExecCommand("DisableConnectionTimeout", ...). 
T2FF0 000:056.863 - 0.006ms returns 0x01
T2FF0 000:056.891 JLINK_GetHardwareVersion()
T2FF0 000:056.905 - 0.019ms returns 94000
T2FF0 000:056.920 JLINK_GetDLLVersion()
T2FF0 000:056.931 - 0.015ms returns 78406
T2FF0 000:056.946 JLINK_GetOEMString(...)
T2FF0 000:057.142 JLINK_GetFirmwareString(...)
T2FF0 000:057.164 - 0.027ms
T2FF0 000:065.498 JLINK_GetDLLVersion()
T2FF0 000:065.517 - 0.024ms returns 78406
T2FF0 000:065.528 JLINK_GetCompileDateTime()
T2FF0 000:065.539 - 0.015ms
T2FF0 000:068.229 JLINK_GetFirmwareString(...)
T2FF0 000:068.246 - 0.022ms
T2FF0 000:074.656 JLINK_GetHardwareVersion()
T2FF0 000:074.683 - 0.032ms returns 94000
T2FF0 000:077.437 JLINK_GetSN()
T2FF0 000:077.457 - 0.025ms returns 59405175
T2FF0 000:080.273 JLINK_GetOEMString(...)
T2FF0 000:087.855 JLINK_TIF_Select(JLINKARM_TIF_SWD)
T2FF0 000:089.608 - 1.764ms returns 0x00
T2FF0 000:089.627 JLINK_HasError()
T2FF0 000:089.734 JLINK_SetSpeed(5000)
T2FF0 000:089.848 - 0.120ms
T2FF0 000:089.864 JLINK_GetId()
T2FF0 000:093.468   Found SW-DP with ID 0x2BA01477
T2FF0 000:099.347   DPIDR: 0x2BA01477
T2FF0 000:103.030   CoreSight SoC-400 or earlier
T2FF0 000:105.631   Scanning AP map to find all available APs
T2FF0 000:108.732   AP[1]: Stopped AP scan as end of AP map has been reached
T2FF0 000:112.643   AP[0]: AHB-AP (IDR: 0x24770011)
T2FF0 000:115.242   Iterating through AP map to find AHB-AP to use
T2FF0 000:121.134   AP[0]: Core found
T2FF0 000:124.836   AP[0]: AHB-AP ROM base: 0xE00FF000
T2FF0 000:128.315   CPUID register: 0x410FC241. Implementer code: 0x41 (ARM)
T2FF0 000:130.934   Found Cortex-M4 r0p1, Little endian.
T2FF0 000:131.380   -- Max. mem block: 0x00010C40
T2FF0 000:131.574   CPU_ReadMem(4 bytes @ 0xE000EDF0)
T2FF0 000:132.750   CPU_WriteMem(4 bytes @ 0xE000EDF0)
T2FF0 000:133.022   CPU_ReadMem(4 bytes @ 0xE0002000)
T2FF0 000:136.026   FPUnit: 6 code (BP) slots and 2 literal slots
T2FF0 000:136.051   CPU_ReadMem(4 bytes @ 0xE000EDFC)
T2FF0 000:136.327   CPU_WriteMem(4 bytes @ 0xE000EDFC)
T2FF0 000:136.697   CPU_ReadMem(4 bytes @ 0xE0001000)
T2FF0 000:136.991   CPU_WriteMem(4 bytes @ 0xE0001000)
T2FF0 000:137.292   CPU_ReadMem(4 bytes @ 0xE000ED88)
T2FF0 000:137.866   CPU_WriteMem(4 bytes @ 0xE000ED88)
T2FF0 000:138.200   CPU_ReadMem(4 bytes @ 0xE000ED88)
T2FF0 000:138.443   CPU_WriteMem(4 bytes @ 0xE000ED88)
T2FF0 000:141.517   CoreSight components:
T2FF0 000:144.343   ROMTbl[0] @ E00FF000
T2FF0 000:144.368   CPU_ReadMem(64 bytes @ 0xE00FF000)
T2FF0 000:144.966   CPU_ReadMem(32 bytes @ 0xE000EFE0)
T2FF0 000:149.245   [0][0]: E000E000 CID B105E00D PID 000BB00C SCS-M7
T2FF0 000:149.286   CPU_ReadMem(32 bytes @ 0xE0001FE0)
T2FF0 000:153.116   [0][1]: E0001000 CID B105E00D PID 003BB002 DWT
T2FF0 000:153.146   CPU_ReadMem(32 bytes @ 0xE0002FE0)
T2FF0 000:156.179   [0][2]: E0002000 CID B105E00D PID 002BB003 FPB
T2FF0 000:156.204   CPU_ReadMem(32 bytes @ 0xE0000FE0)
T2FF0 000:159.305   [0][3]: E0000000 CID B105E00D PID 003BB001 ITM
T2FF0 000:159.330   CPU_ReadMem(32 bytes @ 0xE0040FE0)
T2FF0 000:165.066   [0][4]: E0040000 CID B105900D PID 000BB9A1 TPIU
T2FF0 000:165.393 - 75.543ms returns 0x2BA01477
T2FF0 000:165.426 JLINK_GetDLLVersion()
T2FF0 000:165.437 - 0.015ms returns 78406
T2FF0 000:165.453 JLINK_CORE_GetFound()
T2FF0 000:165.463 - 0.015ms returns 0xE0000FF
T2FF0 000:165.512 JLINK_GetDebugInfo(0x100 = JLINKARM_ROM_TABLE_ADDR_INDEX)
T2FF0 000:165.527   Value=0xE00FF000
T2FF0 000:165.542 - 0.035ms returns 0
T2FF0 000:168.309 JLINK_GetDebugInfo(0x100 = JLINKARM_ROM_TABLE_ADDR_INDEX)
T2FF0 000:168.328   Value=0xE00FF000
T2FF0 000:168.344 - 0.039ms returns 0
T2FF0 000:168.355 JLINK_GetDebugInfo(0x101 = JLINKARM_DEBUG_INFO_ETM_ADDR_INDEX)
T2FF0 000:168.365   Value=0x00000000
T2FF0 000:168.380 - 0.030ms returns 0
T2FF0 000:168.391 JLINK_ReadMemEx(0xE0041FF0, 0x10 Bytes, Flags = 0x02000004)
T2FF0 000:168.422   CPU_ReadMem(16 bytes @ 0xE0041FF0)
T2FF0 000:168.778   Data:  00 00 00 00 00 00 00 00 00 00 00 00 00 00 00 00
T2FF0 000:168.795 - 0.408ms returns 16 (0x10)
T2FF0 000:168.807 JLINK_GetDebugInfo(0x102 = JLINKARM_DEBUG_INFO_MTB_ADDR_INDEX)
T2FF0 000:168.817   Value=0x00000000
T2FF0 000:168.832 - 0.030ms returns 0
T2FF0 000:168.843 JLINK_GetDebugInfo(0x103 = JLINKARM_DEBUG_INFO_TPIU_ADDR_INDEX)
T2FF0 000:168.853   Value=0xE0040000
T2FF0 000:168.868 - 0.030ms returns 0
T2FF0 000:168.879 JLINK_GetDebugInfo(0x104 = JLINKARM_DEBUG_INFO_ITM_ADDR_INDEX)
T2FF0 000:168.889   Value=0xE0000000
T2FF0 000:168.903 - 0.029ms returns 0
T2FF0 000:168.914 JLINK_GetDebugInfo(0x105 = JLINKARM_DEBUG_INFO_DWT_ADDR_INDEX)
T2FF0 000:168.924   Value=0xE0001000
T2FF0 000:168.939 - 0.030ms returns 0
T2FF0 000:168.950 JLINK_GetDebugInfo(0x106 = JLINKARM_DEBUG_INFO_FPB_ADDR_INDEX)
T2FF0 000:168.960   Value=0xE0002000
T2FF0 000:168.975 - 0.030ms returns 0
T2FF0 000:168.985 JLINK_GetDebugInfo(0x107 = JLINKARM_DEBUG_INFO_NVIC_ADDR_INDEX)
T2FF0 000:168.995   Value=0xE000E000
T2FF0 000:169.010 - 0.029ms returns 0
T2FF0 000:169.021 JLINK_GetDebugInfo(0x10C = JLINKARM_DEBUG_INFO_DBG_ADDR_INDEX)
T2FF0 000:169.031   Value=0xE000EDF0
T2FF0 000:169.046 - 0.029ms returns 0
T2FF0 000:169.056 JLINK_GetDebugInfo(0x01 = Unknown)
T2FF0 000:169.226   Value=0x00000001
T2FF0 000:169.241 - 0.190ms returns 0
T2FF0 000:169.253 JLINK_ReadMemU32(0xE000ED00, 0x1 Items)
T2FF0 000:169.267   CPU_ReadMem(4 bytes @ 0xE000ED00)
T2FF0 000:169.537   Data:  41 C2 0F 41
T2FF0 000:169.560   Debug reg: CPUID
T2FF0 000:169.575 - 0.327ms returns 1 (0x1)
T2FF0 000:169.588 JLINK_GetDebugInfo(0x10F = JLINKARM_DEBUG_INFO_HAS_CORTEX_M_SECURITY_EXT_INDEX)
T2FF0 000:169.599   Value=0x00000000
T2FF0 000:169.614 - 0.031ms returns 0
T2FF0 000:169.626 JLINK_HasError()
T2FF0 000:169.638 JLINK_SetResetType(JLINKARM_CM3_RESET_TYPE_NORMAL)
T2FF0 000:169.648 - 0.016ms returns JLINKARM_CM3_RESET_TYPE_NORMAL
T2FF0 000:169.660 JLINK_Reset()
T2FF0 000:172.391   ResetTarget() start
T2FF0 000:172.417    J-Link Script File: Executing ResetTarget()
T2FF0 000:180.040   JDEC PID 0x000000CF
T2FF0 000:182.850   Ambiq Apollo3 ResetTarget
T2FF0 000:185.900   Bootldr = 0x04000000
T2FF0 000:188.475   Secure Part.
T2FF0 000:192.586   Secure Chip. Bootloader needs to run which will then halt when finish.
T2FF0 000:197.267   CPU halted after reset. TryCount = 0x00000000
T2FF0 000:308.501   ResetTarget() end
T2FF0 000:311.740   CPU_WriteMem(4 bytes @ 0xE0002000)
T2FF0 000:312.204   CPU_ReadMem(4 bytes @ 0xE000EDFC)
T2FF0 000:312.549   CPU_WriteMem(4 bytes @ 0xE000EDFC)
T2FF0 000:312.894   CPU_ReadMem(4 bytes @ 0xE0001000)
T2FF0 000:313.204 - 143.552ms
T2FF0 000:313.233 JLINK_Halt()
T2FF0 000:313.248 - 0.021ms returns 0x00
T2FF0 000:313.268 JLINK_ReadMemU32(0xE000EDF0, 0x1 Items)
T2FF0 000:313.290   CPU_ReadMem(4 bytes @ 0xE000EDF0)
T2FF0 000:313.602   Data:  03 00 03 00
T2FF0 000:313.622   Debug reg: DHCSR
T2FF0 000:313.641 - 0.379ms returns 1 (0x1)
T2FF0 000:313.660 JLINK_WriteU32_64(0xE000EDF0, 0xA05F0003)
T2FF0 000:313.676   Debug reg: DHCSR
T2FF0 000:314.000   CPU_WriteMem(4 bytes @ 0xE000EDF0)
T2FF0 000:314.317 - 0.664ms returns 0 (0x00000000)
T2FF0 000:314.340 JLINK_WriteU32_64(0xE000EDFC, 0x01000000)
T2FF0 000:314.353   Debug reg: DEMCR
T2FF0 000:314.377   CPU_WriteMem(4 bytes @ 0xE000EDFC)
T2FF0 000:314.692 - 0.358ms returns 0 (0x00000000)
T2FF0 000:326.314 JLINK_GetHWStatus(...)
T2FF0 000:326.574 - 0.271ms returns 0
T2FF0 000:336.047 JLINK_GetNumBPUnits(Type = 0xFFFFFF00)
T2FF0 000:336.072 - 0.031ms returns 0x06
T2FF0 000:336.084 JLINK_GetNumBPUnits(Type = 0xF0)
T2FF0 000:336.095 - 0.016ms returns 0x2000
T2FF0 000:336.107 JLINK_GetNumWPUnits()
T2FF0 000:336.118 - 0.016ms returns 4
T2FF0 000:346.662 JLINK_GetSpeed()
T2FF0 000:346.690 - 0.033ms returns 4000
T2FF0 000:352.438 JLINK_ReadMemU32(0xE000E004, 0x1 Items)
T2FF0 000:352.475   CPU_ReadMem(4 bytes @ 0xE000E004)
T2FF0 000:352.846   Data:  00 00 00 00
T2FF0 000:352.872 - 0.439ms returns 1 (0x1)
T2FF0 000:352.886 JLINK_ReadMemU32(0xE000E004, 0x1 Items)
T2FF0 000:352.901   CPU_ReadMem(4 bytes @ 0xE000E004)
T2FF0 000:353.176   Data:  00 00 00 00
T2FF0 000:353.199 - 0.318ms returns 1 (0x1)
T2FF0 000:353.222 JLINK_WriteMemEx(0xE0001000, 0x0000001C Bytes, Flags = 0x02000004)
T2FF0 000:353.233   Data:  01 00 00 00 00 00 00 00 00 00 00 00 00 00 00 00 ...
T2FF0 000:353.256   CPU_WriteMem(28 bytes @ 0xE0001000)
T2FF0 000:353.657 - 0.440ms returns 0x1C
T2FF0 000:353.672 JLINK_Halt()
T2FF0 000:353.682 - 0.015ms returns 0x00
T2FF0 000:353.693 JLINK_IsHalted()
T2FF0 000:353.705 - 0.016ms returns TRUE
T2FF0 000:355.985 JLINK_WriteMem(0x10000000, 0x150 Bytes, ...)
T2FF0 000:356.000   Data:  00 BE 0A E0 0D 78 2D 06 68 40 08 24 40 00 00 D3 ...
T2FF0 000:356.210   CPU_WriteMem(336 bytes @ 0x10000000)
T2FF0 000:357.896 - 1.926ms returns 0x150
T2FF0 000:357.942 JLINK_HasError()
T2FF0 000:357.956 JLINK_WriteReg(R0, 0x0000C000)
T2FF0 000:357.974 - 0.023ms returns 0
T2FF0 000:357.986 JLINK_WriteReg(R1, 0x02DC6C00)
T2FF0 000:358.008 - 0.028ms returns 0
T2FF0 000:358.020 JLINK_WriteReg(R2, 0x00000001)
T2FF0 000:358.031 - 0.016ms returns 0
T2FF0 000:358.042 JLINK_WriteReg(R3, 0x00000000)
T2FF0 000:358.054 - 0.016ms returns 0
T2FF0 000:358.065 JLINK_WriteReg(R4, 0x00000000)
T2FF0 000:358.076 - 0.016ms returns 0
T2FF0 000:358.088 JLINK_WriteReg(R5, 0x00000000)
T2FF0 000:358.099 - 0.016ms returns 0
T2FF0 000:358.110 JLINK_WriteReg(R6, 0x00000000)
T2FF0 000:358.121 - 0.016ms returns 0
T2FF0 000:358.133 JLINK_WriteReg(R7, 0x00000000)
T2FF0 000:358.144 - 0.016ms returns 0
T2FF0 000:358.155 JLINK_WriteReg(R8, 0x00000000)
T2FF0 000:358.180 - 0.030ms returns 0
T2FF0 000:358.191 JLINK_WriteReg(R9, 0x1000012C)
T2FF0 000:358.201 - 0.015ms returns 0
T2FF0 000:358.212 JLINK_WriteReg(R10, 0x00000000)
T2FF0 000:358.222 - 0.015ms returns 0
T2FF0 000:358.233 JLINK_WriteReg(R11, 0x00000000)
T2FF0 000:358.243 - 0.015ms returns 0
T2FF0 000:358.254 JLINK_WriteReg(R12, 0x00000000)
T2FF0 000:358.264 - 0.015ms returns 0
T2FF0 000:358.275 JLINK_WriteReg(R13 (SP), 0x10004000)
T2FF0 000:358.285 - 0.015ms returns 0
T2FF0 000:358.296 JLINK_WriteReg(R14, 0x10000001)
T2FF0 000:358.306 - 0.015ms returns 0
T2FF0 000:358.317 JLINK_WriteReg(R15 (PC), 0x10000038)
T2FF0 000:358.331 - 0.019ms returns 0
T2FF0 000:358.342 JLINK_WriteReg(XPSR, 0x01000000)
T2FF0 000:358.352 - 0.017ms returns 0
T2FF0 000:358.367 JLINK_WriteReg(MSP, 0x10004000)
T2FF0 000:358.377 - 0.015ms returns 0
T2FF0 000:358.388 JLINK_WriteReg(PSP, 0x10004000)
T2FF0 000:358.398 - 0.015ms returns 0
T2FF0 000:358.409 JLINK_WriteReg(CFBP, 0x00000000)
T2FF0 000:358.419 - 0.015ms returns 0
T2FF0 000:358.430 JLINK_SetBPEx(Addr = 0x10000000, Type = 0xFFFFFFF2)
T2FF0 000:358.441 - 0.016ms returns 0x00000001
T2FF0 000:358.452 JLINK_Go()
T2FF0 000:358.465   CPU_WriteMem(4 bytes @ 0xE0002000)
T2FF0 000:358.806   CPU_ReadMem(4 bytes @ 0xE0001000)
T2FF0 000:359.078   CPU_WriteMem(4 bytes @ 0xE0002008)
T2FF0 000:359.095   CPU_WriteMem(4 bytes @ 0xE000200C)
T2FF0 000:359.110   CPU_WriteMem(4 bytes @ 0xE0002010)
T2FF0 000:359.125   CPU_WriteMem(4 bytes @ 0xE0002014)
T2FF0 000:359.140   CPU_WriteMem(4 bytes @ 0xE0002018)
T2FF0 000:359.155   CPU_WriteMem(4 bytes @ 0xE000201C)
T2FF0 000:360.164   CPU_WriteMem(4 bytes @ 0xE0001004)
T2FF0 000:362.297 - 3.851ms
T2FF0 000:362.310 JLINK_IsHalted()
T2FF0 000:364.346 - 2.048ms returns TRUE
T2FF0 000:364.367 JLINK_ReadReg(R15 (PC))
T2FF0 000:364.379 - 0.017ms returns 0x10000000
T2FF0 000:364.390 JLINK_ClrBPEx(BPHandle = 0x00000001)
T2FF0 000:364.401 - 0.015ms returns 0x00
T2FF0 000:364.412 JLINK_ReadReg(R0)
T2FF0 000:364.422 - 0.015ms returns 0x00000000
T2FF0 000:364.643 JLINK_HasError()
T2FF0 000:364.657 JLINK_WriteReg(R0, 0x0000C000)
T2FF0 000:364.668 - 0.016ms returns 0
T2FF0 000:364.679 JLINK_WriteReg(R1, 0x00002000)
T2FF0 000:364.690 - 0.015ms returns 0
T2FF0 000:364.701 JLINK_WriteReg(R2, 0x000000FF)
T2FF0 000:364.711 - 0.015ms returns 0
T2FF0 000:364.722 JLINK_WriteReg(R3, 0x00000000)
T2FF0 000:364.732 - 0.015ms returns 0
T2FF0 000:364.743 JLINK_WriteReg(R4, 0x00000000)
T2FF0 000:364.753 - 0.015ms returns 0
T2FF0 000:364.764 JLINK_WriteReg(R5, 0x00000000)
T2FF0 000:364.774 - 0.015ms returns 0
T2FF0 000:364.785 JLINK_WriteReg(R6, 0x00000000)
T2FF0 000:364.795 - 0.015ms returns 0
T2FF0 000:364.841 JLINK_WriteReg(R7, 0x00000000)
T2FF0 000:364.863 - 0.026ms returns 0
T2FF0 000:364.874 JLINK_WriteReg(R8, 0x00000000)
T2FF0 000:364.885 - 0.015ms returns 0
T2FF0 000:364.896 JLINK_WriteReg(R9, 0x1000012C)
T2FF0 000:364.906 - 0.015ms returns 0
T2FF0 000:364.917 JLINK_WriteReg(R10, 0x00000000)
T2FF0 000:364.927 - 0.015ms returns 0
T2FF0 000:364.938 JLINK_WriteReg(R11, 0x00000000)
T2FF0 000:364.948 - 0.015ms returns 0
T2FF0 000:364.959 JLINK_WriteReg(R12, 0x00000000)
T2FF0 000:364.969 - 0.015ms returns 0
T2FF0 000:364.980 JLINK_WriteReg(R13 (SP), 0x10004000)
T2FF0 000:364.991 - 0.015ms returns 0
T2FF0 000:365.001 JLINK_WriteReg(R14, 0x10000001)
T2FF0 000:365.012 - 0.015ms returns 0
T2FF0 000:365.022 JLINK_WriteReg(R15 (PC), 0x10000020)
T2FF0 000:365.033 - 0.015ms returns 0
T2FF0 000:365.044 JLINK_WriteReg(XPSR, 0x01000000)
T2FF0 000:365.054 - 0.015ms returns 0
T2FF0 000:365.065 JLINK_WriteReg(MSP, 0x10004000)
T2FF0 000:365.075 - 0.015ms returns 0
T2FF0 000:365.086 JLINK_WriteReg(PSP, 0x10004000)
T2FF0 000:365.096 - 0.015ms returns 0
T2FF0 000:365.106 JLINK_WriteReg(CFBP, 0x00000000)
T2FF0 000:365.117 - 0.015ms returns 0
T2FF0 000:365.128 JLINK_SetBPEx(Addr = 0x10000000, Type = 0xFFFFFFF2)
T2FF0 000:365.139 - 0.016ms returns 0x00000002
T2FF0 000:365.150 JLINK_Go()
T2FF0 000:365.164   CPU_WriteMem(4 bytes @ 0xE0002000)
T2FF0 000:365.436   CPU_ReadMem(4 bytes @ 0xE0001000)
T2FF0 000:367.529 - 2.390ms
T2FF0 000:367.548 JLINK_IsHalted()
T2FF0 000:369.513 - 1.977ms returns TRUE
T2FF0 000:369.534 JLINK_ReadReg(R15 (PC))
T2FF0 000:369.545 - 0.016ms returns 0x10000000
T2FF0 000:369.556 JLINK_ClrBPEx(BPHandle = 0x00000002)
T2FF0 000:369.567 - 0.015ms returns 0x00
T2FF0 000:369.578 JLINK_ReadReg(R0)
T2FF0 000:369.589 - 0.015ms returns 0x00000001
T2FF0 000:369.600 JLINK_HasError()
T2FF0 000:369.611 JLINK_WriteReg(R0, 0x0000C000)
T2FF0 000:369.622 - 0.015ms returns 0
T2FF0 000:369.632 JLINK_WriteReg(R1, 0x00002000)
T2FF0 000:369.643 - 0.015ms returns 0
T2FF0 000:369.653 JLINK_WriteReg(R2, 0x000000FF)
T2FF0 000:369.664 - 0.015ms returns 0
T2FF0 000:369.710 JLINK_WriteReg(R3, 0x00000000)
T2FF0 000:369.722 - 0.017ms returns 0
T2FF0 000:369.733 JLINK_WriteReg(R4, 0x00000000)
T2FF0 000:369.743 - 0.015ms returns 0
T2FF0 000:369.754 JLINK_WriteReg(R5, 0x00000000)
T2FF0 000:369.764 - 0.015ms returns 0
T2FF0 000:369.775 JLINK_WriteReg(R6, 0x00000000)
T2FF0 000:369.785 - 0.015ms returns 0
T2FF0 000:369.796 JLINK_WriteReg(R7, 0x00000000)
T2FF0 000:369.806 - 0.015ms returns 0
T2FF0 000:369.816 JLINK_WriteReg(R8, 0x00000000)
T2FF0 000:369.827 - 0.015ms returns 0
T2FF0 000:369.838 JLINK_WriteReg(R9, 0x1000012C)
T2FF0 000:369.848 - 0.015ms returns 0
T2FF0 000:369.858 JLINK_WriteReg(R10, 0x00000000)
T2FF0 000:369.869 - 0.015ms returns 0
T2FF0 000:369.879 JLINK_WriteReg(R11, 0x00000000)
T2FF0 000:369.890 - 0.015ms returns 0
T2FF0 000:369.900 JLINK_WriteReg(R12, 0x00000000)
T2FF0 000:369.910 - 0.015ms returns 0
T2FF0 000:369.921 JLINK_WriteReg(R13 (SP), 0x10004000)
T2FF0 000:369.931 - 0.015ms returns 0
T2FF0 000:369.942 JLINK_WriteReg(R14, 0x10000001)
T2FF0 000:369.952 - 0.015ms returns 0
T2FF0 000:369.963 JLINK_WriteReg(R15 (PC), 0x1000007C)
T2FF0 000:369.973 - 0.015ms returns 0
T2FF0 000:369.984 JLINK_WriteReg(XPSR, 0x01000000)
T2FF0 000:369.994 - 0.015ms returns 0
T2FF0 000:370.005 JLINK_WriteReg(MSP, 0x10004000)
T2FF0 000:370.016 - 0.015ms returns 0
T2FF0 000:370.026 JLINK_WriteReg(PSP, 0x10004000)
T2FF0 000:370.036 - 0.015ms returns 0
T2FF0 000:370.047 JLINK_WriteReg(CFBP, 0x00000000)
T2FF0 000:370.057 - 0.015ms returns 0
T2FF0 000:370.068 JLINK_SetBPEx(Addr = 0x10000000, Type = 0xFFFFFFF2)
T2FF0 000:370.079 - 0.016ms returns 0x00000003
T2FF0 000:370.090 JLINK_Go()
T2FF0 000:370.103   CPU_WriteMem(4 bytes @ 0xE0002000)
T2FF0 000:370.477   CPU_ReadMem(4 bytes @ 0xE0001000)
T2FF0 000:372.605 - 2.522ms
T2FF0 000:372.620 JLINK_IsHalted()
T2FF0 000:372.890 - 0.277ms returns FALSE
T2FF0 000:372.905 JLINK_HasError()
T2FF0 000:418.934 JLINK_IsHalted()
T2FF0 000:420.882 - 1.968ms returns TRUE
T2FF0 000:420.912 JLINK_ReadReg(R15 (PC))
T2FF0 000:420.926 - 0.019ms returns 0x10000000
T2FF0 000:420.938 JLINK_ClrBPEx(BPHandle = 0x00000003)
T2FF0 000:420.949 - 0.016ms returns 0x00
T2FF0 000:420.961 JLINK_ReadReg(R0)
T2FF0 000:420.972 - 0.016ms returns 0x00000000
T2FF0 000:421.391 JLINK_HasError()
T2FF0 000:421.415 JLINK_WriteReg(R0, 0x0000E000)
T2FF0 000:421.428 - 0.018ms returns 0
T2FF0 000:421.439 JLINK_WriteReg(R1, 0x00002000)
T2FF0 000:421.450 - 0.016ms returns 0
T2FF0 000:421.461 JLINK_WriteReg(R2, 0x000000FF)
T2FF0 000:421.472 - 0.015ms returns 0
T2FF0 000:421.483 JLINK_WriteReg(R3, 0x00000000)
T2FF0 000:421.493 - 0.015ms returns 0
T2FF0 000:421.504 JLINK_WriteReg(R4, 0x00000000)
T2FF0 000:421.515 - 0.015ms returns 0
T2FF0 000:421.526 JLINK_WriteReg(R5, 0x00000000)
T2FF0 000:421.536 - 0.015ms returns 0
T2FF0 000:421.547 JLINK_WriteReg(R6, 0x00000000)
T2FF0 000:421.558 - 0.015ms returns 0
T2FF0 000:421.569 JLINK_WriteReg(R7, 0x00000000)
T2FF0 000:421.579 - 0.015ms returns 0
T2FF0 000:421.590 JLINK_WriteReg(R8, 0x00000000)
T2FF0 000:421.601 - 0.016ms returns 0
T2FF0 000:421.612 JLINK_WriteReg(R9, 0x1000012C)
T2FF0 000:421.622 - 0.015ms returns 0
T2FF0 000:421.634 JLINK_WriteReg(R10, 0x00000000)
T2FF0 000:421.644 - 0.015ms returns 0
T2FF0 000:421.655 JLINK_WriteReg(R11, 0x00000000)
T2FF0 000:421.666 - 0.015ms returns 0
T2FF0 000:421.677 JLINK_WriteReg(R12, 0x00000000)
T2FF0 000:421.687 - 0.015ms returns 0
T2FF0 000:421.698 JLINK_WriteReg(R13 (SP), 0x10004000)
T2FF0 000:421.709 - 0.016ms returns 0
T2FF0 000:421.720 JLINK_WriteReg(R14, 0x10000001)
T2FF0 000:421.731 - 0.015ms returns 0
T2FF0 000:421.742 JLINK_WriteReg(R15 (PC), 0x10000020)
T2FF0 000:421.753 - 0.016ms returns 0
T2FF0 000:421.764 JLINK_WriteReg(XPSR, 0x01000000)
T2FF0 000:421.774 - 0.015ms returns 0
T2FF0 000:421.786 JLINK_WriteReg(MSP, 0x10004000)
T2FF0 000:421.796 - 0.015ms returns 0
T2FF0 000:421.807 JLINK_WriteReg(PSP, 0x10004000)
T2FF0 000:421.818 - 0.015ms returns 0
T2FF0 000:421.829 JLINK_WriteReg(CFBP, 0x00000000)
T2FF0 000:421.844 - 0.022ms returns 0
T2FF0 000:421.857 JLINK_SetBPEx(Addr = 0x10000000, Type = 0xFFFFFFF2)
T2FF0 000:421.869 - 0.017ms returns 0x00000004
T2FF0 000:421.881 JLINK_Go()
T2FF0 000:421.897   CPU_WriteMem(4 bytes @ 0xE0002000)
T2FF0 000:422.211   CPU_ReadMem(4 bytes @ 0xE0001000)
T2FF0 000:424.267 - 2.393ms
T2FF0 000:424.281 JLINK_IsHalted()
T2FF0 000:426.149 - 1.875ms returns TRUE
T2FF0 000:426.162 JLINK_ReadReg(R15 (PC))
T2FF0 000:426.183 - 0.025ms returns 0x10000000
T2FF0 000:426.194 JLINK_ClrBPEx(BPHandle = 0x00000004)
T2FF0 000:426.205 - 0.015ms returns 0x00
T2FF0 000:426.216 JLINK_ReadReg(R0)
T2FF0 000:426.226 - 0.015ms returns 0x00000001
T2FF0 000:426.238 JLINK_HasError()
T2FF0 000:426.248 JLINK_WriteReg(R0, 0x0000E000)
T2FF0 000:426.259 - 0.015ms returns 0
T2FF0 000:426.270 JLINK_WriteReg(R1, 0x00002000)
T2FF0 000:426.280 - 0.015ms returns 0
T2FF0 000:426.291 JLINK_WriteReg(R2, 0x000000FF)
T2FF0 000:426.301 - 0.015ms returns 0
T2FF0 000:426.312 JLINK_WriteReg(R3, 0x00000000)
T2FF0 000:426.322 - 0.015ms returns 0
T2FF0 000:426.333 JLINK_WriteReg(R4, 0x00000000)
T2FF0 000:426.343 - 0.015ms returns 0
T2FF0 000:426.354 JLINK_WriteReg(R5, 0x00000000)
T2FF0 000:426.364 - 0.015ms returns 0
T2FF0 000:426.375 JLINK_WriteReg(R6, 0x00000000)
T2FF0 000:426.385 - 0.015ms returns 0
T2FF0 000:426.396 JLINK_WriteReg(R7, 0x00000000)
T2FF0 000:426.406 - 0.015ms returns 0
T2FF0 000:426.417 JLINK_WriteReg(R8, 0x00000000)
T2FF0 000:426.427 - 0.015ms returns 0
T2FF0 000:426.438 JLINK_WriteReg(R9, 0x1000012C)
T2FF0 000:426.448 - 0.015ms returns 0
T2FF0 000:426.459 JLINK_WriteReg(R10, 0x00000000)
T2FF0 000:426.469 - 0.015ms returns 0
T2FF0 000:426.480 JLINK_WriteReg(R11, 0x00000000)
T2FF0 000:426.490 - 0.015ms returns 0
T2FF0 000:426.501 JLINK_WriteReg(R12, 0x00000000)
T2FF0 000:426.511 - 0.015ms returns 0
T2FF0 000:426.522 JLINK_WriteReg(R13 (SP), 0x10004000)
T2FF0 000:426.534 - 0.016ms returns 0
T2FF0 000:426.544 JLINK_WriteReg(R14, 0x10000001)
T2FF0 000:426.555 - 0.015ms returns 0
T2FF0 000:426.565 JLINK_WriteReg(R15 (PC), 0x1000007C)
T2FF0 000:426.576 - 0.015ms returns 0
T2FF0 000:426.586 JLINK_WriteReg(XPSR, 0x01000000)
T2FF0 000:426.597 - 0.015ms returns 0
T2FF0 000:426.608 JLINK_WriteReg(MSP, 0x10004000)
T2FF0 000:426.618 - 0.015ms returns 0
T2FF0 000:426.629 JLINK_WriteReg(PSP, 0x10004000)
T2FF0 000:426.639 - 0.015ms returns 0
T2FF0 000:426.650 JLINK_WriteReg(CFBP, 0x00000000)
T2FF0 000:426.660 - 0.015ms returns 0
T2FF0 000:426.671 JLINK_SetBPEx(Addr = 0x10000000, Type = 0xFFFFFFF2)
T2FF0 000:426.683 - 0.016ms returns 0x00000005
T2FF0 000:426.693 JLINK_Go()
T2FF0 000:426.705   CPU_WriteMem(4 bytes @ 0xE0002000)
T2FF0 000:427.010   CPU_ReadMem(4 bytes @ 0xE0001000)
T2FF0 000:429.138 - 2.456ms
T2FF0 000:429.158 JLINK_IsHalted()
T2FF0 000:429.549 - 0.400ms returns FALSE
T2FF0 000:429.567 JLINK_HasError()
T2FF0 000:570.499 JLINK_IsHalted()
T2FF0 000:572.638 - 2.152ms returns TRUE
T2FF0 000:572.659 JLINK_ReadReg(R15 (PC))
T2FF0 000:572.672 - 0.017ms returns 0x10000000
T2FF0 000:572.683 JLINK_ClrBPEx(BPHandle = 0x00000005)
T2FF0 000:572.694 - 0.016ms returns 0x00
T2FF0 000:572.705 JLINK_ReadReg(R0)
T2FF0 000:572.716 - 0.015ms returns 0x00000000
T2FF0 000:573.075 JLINK_HasError()
T2FF0 000:573.091 JLINK_WriteReg(R0, 0x00010000)
T2FF0 000:573.104 - 0.017ms returns 0
T2FF0 000:573.115 JLINK_WriteReg(R1, 0x00002000)
T2FF0 000:573.125 - 0.015ms returns 0
T2FF0 000:573.136 JLINK_WriteReg(R2, 0x000000FF)
T2FF0 000:573.147 - 0.015ms returns 0
T2FF0 000:573.157 JLINK_WriteReg(R3, 0x00000000)
T2FF0 000:573.168 - 0.015ms returns 0
T2FF0 000:573.179 JLINK_WriteReg(R4, 0x00000000)
T2FF0 000:573.189 - 0.015ms returns 0
T2FF0 000:573.200 JLINK_WriteReg(R5, 0x00000000)
T2FF0 000:573.210 - 0.016ms returns 0
T2FF0 000:573.222 JLINK_WriteReg(R6, 0x00000000)
T2FF0 000:573.235 - 0.018ms returns 0
T2FF0 000:573.247 JLINK_WriteReg(R7, 0x00000000)
T2FF0 000:573.260 - 0.018ms returns 0
T2FF0 000:573.272 JLINK_WriteReg(R8, 0x00000000)
T2FF0 000:573.285 - 0.022ms returns 0
T2FF0 000:573.303 JLINK_WriteReg(R9, 0x1000012C)
T2FF0 000:573.316 - 0.018ms returns 0
T2FF0 000:573.329 JLINK_WriteReg(R10, 0x00000000)
T2FF0 000:573.341 - 0.018ms returns 0
T2FF0 000:573.354 JLINK_WriteReg(R11, 0x00000000)
T2FF0 000:573.366 - 0.018ms returns 0
T2FF0 000:573.379 JLINK_WriteReg(R12, 0x00000000)
T2FF0 000:573.391 - 0.018ms returns 0
T2FF0 000:573.404 JLINK_WriteReg(R13 (SP), 0x10004000)
T2FF0 000:573.417 - 0.018ms returns 0
T2FF0 000:573.430 JLINK_WriteReg(R14, 0x10000001)
T2FF0 000:573.442 - 0.018ms returns 0
T2FF0 000:573.455 JLINK_WriteReg(R15 (PC), 0x10000020)
T2FF0 000:573.468 - 0.018ms returns 0
T2FF0 000:573.480 JLINK_WriteReg(XPSR, 0x01000000)
T2FF0 000:573.493 - 0.018ms returns 0
T2FF0 000:573.506 JLINK_WriteReg(MSP, 0x10004000)
T2FF0 000:573.518 - 0.018ms returns 0
T2FF0 000:573.531 JLINK_WriteReg(PSP, 0x10004000)
T2FF0 000:573.543 - 0.018ms returns 0
T2FF0 000:573.556 JLINK_WriteReg(CFBP, 0x00000000)
T2FF0 000:573.568 - 0.018ms returns 0
T2FF0 000:573.581 JLINK_SetBPEx(Addr = 0x10000000, Type = 0xFFFFFFF2)
T2FF0 000:573.595 - 0.020ms returns 0x00000006
T2FF0 000:573.608 JLINK_Go()
T2FF0 000:573.626   CPU_WriteMem(4 bytes @ 0xE0002000)
T2FF0 000:573.957   CPU_ReadMem(4 bytes @ 0xE0001000)
T2FF0 000:576.283 - 2.695ms
T2FF0 000:576.316 JLINK_IsHalted()
T2FF0 000:578.364 - 2.075ms returns TRUE
T2FF0 000:578.402 JLINK_ReadReg(R15 (PC))
T2FF0 000:578.425 - 0.030ms returns 0x10000000
T2FF0 000:578.441 JLINK_ClrBPEx(BPHandle = 0x00000006)
T2FF0 000:578.455 - 0.021ms returns 0x00
T2FF0 000:578.471 JLINK_ReadReg(R0)
T2FF0 000:578.485 - 0.021ms returns 0x00000001
T2FF0 000:578.500 JLINK_HasError()
T2FF0 000:578.516 JLINK_WriteReg(R0, 0x00010000)
T2FF0 000:578.531 - 0.021ms returns 0
T2FF0 000:578.546 JLINK_WriteReg(R1, 0x00002000)
T2FF0 000:578.560 - 0.021ms returns 0
T2FF0 000:578.574 JLINK_WriteReg(R2, 0x000000FF)
T2FF0 000:578.589 - 0.021ms returns 0
T2FF0 000:578.603 JLINK_WriteReg(R3, 0x00000000)
T2FF0 000:578.617 - 0.035ms returns 0
T2FF0 000:578.647 JLINK_WriteReg(R4, 0x00000000)
T2FF0 000:578.661 - 0.021ms returns 0
T2FF0 000:578.676 JLINK_WriteReg(R5, 0x00000000)
T2FF0 000:578.690 - 0.021ms returns 0
T2FF0 000:578.704 JLINK_WriteReg(R6, 0x00000000)
T2FF0 000:578.719 - 0.021ms returns 0
T2FF0 000:578.733 JLINK_WriteReg(R7, 0x00000000)
T2FF0 000:578.747 - 0.021ms returns 0
T2FF0 000:578.762 JLINK_WriteReg(R8, 0x00000000)
T2FF0 000:578.776 - 0.021ms returns 0
T2FF0 000:578.791 JLINK_WriteReg(R9, 0x1000012C)
T2FF0 000:578.805 - 0.021ms returns 0
T2FF0 000:578.820 JLINK_WriteReg(R10, 0x00000000)
T2FF0 000:578.834 - 0.021ms returns 0
T2FF0 000:578.849 JLINK_WriteReg(R11, 0x00000000)
T2FF0 000:578.863 - 0.021ms returns 0
T2FF0 000:578.877 JLINK_WriteReg(R12, 0x00000000)
T2FF0 000:578.892 - 0.021ms returns 0
T2FF0 000:578.906 JLINK_WriteReg(R13 (SP), 0x10004000)
T2FF0 000:578.921 - 0.021ms returns 0
T2FF0 000:578.936 JLINK_WriteReg(R14, 0x10000001)
T2FF0 000:578.950 - 0.021ms returns 0
T2FF0 000:578.964 JLINK_WriteReg(R15 (PC), 0x1000007C)
T2FF0 000:578.979 - 0.021ms returns 0
T2FF0 000:578.993 JLINK_WriteReg(XPSR, 0x01000000)
T2FF0 000:579.008 - 0.021ms returns 0
T2FF0 000:579.022 JLINK_WriteReg(MSP, 0x10004000)
T2FF0 000:579.036 - 0.021ms returns 0
T2FF0 000:579.051 JLINK_WriteReg(PSP, 0x10004000)
T2FF0 000:579.065 - 0.021ms returns 0
T2FF0 000:579.080 JLINK_WriteReg(CFBP, 0x00000000)
T2FF0 000:579.094 - 0.021ms returns 0
T2FF0 000:579.109 JLINK_SetBPEx(Addr = 0x10000000, Type = 0xFFFFFFF2)
T2FF0 000:579.124 - 0.022ms returns 0x00000007
T2FF0 000:579.139 JLINK_Go()
T2FF0 000:579.158   CPU_WriteMem(4 bytes @ 0xE0002000)
T2FF0 000:579.530   CPU_ReadMem(4 bytes @ 0xE0001000)
T2FF0 000:581.762 - 2.632ms
T2FF0 000:581.782 JLINK_IsHalted()
T2FF0 000:582.089 - 0.315ms returns FALSE
T2FF0 000:582.108 JLINK_HasError()
T2FF0 000:583.449 JLINK_IsHalted()
T2FF0 000:583.727 - 0.289ms returns FALSE
T2FF0 000:583.749 JLINK_HasError()
T2FF0 000:584.969 JLINK_IsHalted()
T2FF0 000:585.247 - 0.290ms returns FALSE
T2FF0 000:585.276 JLINK_HasError()
T2FF0 000:586.899 JLINK_IsHalted()
T2FF0 000:587.244 - 0.351ms returns FALSE
T2FF0 000:587.257 JLINK_HasError()
T2FF0 000:620.243 JLINK_IsHalted()
T2FF0 000:622.185 - 1.955ms returns TRUE
T2FF0 000:622.207 JLINK_ReadReg(R15 (PC))
T2FF0 000:622.220 - 0.019ms returns 0x10000000
T2FF0 000:622.233 JLINK_ClrBPEx(BPHandle = 0x00000007)
T2FF0 000:622.244 - 0.017ms returns 0x00
T2FF0 000:622.256 JLINK_ReadReg(R0)
T2FF0 000:622.267 - 0.016ms returns 0x00000000
T2FF0 000:622.643 JLINK_HasError()
T2FF0 000:622.662 JLINK_WriteReg(R0, 0x00012000)
T2FF0 000:622.676 - 0.019ms returns 0
T2FF0 000:622.688 JLINK_WriteReg(R1, 0x00002000)
T2FF0 000:622.699 - 0.016ms returns 0
T2FF0 000:622.711 JLINK_WriteReg(R2, 0x000000FF)
T2FF0 000:622.722 - 0.016ms returns 0
T2FF0 000:622.733 JLINK_WriteReg(R3, 0x00000000)
T2FF0 000:622.746 - 0.017ms returns 0
T2FF0 000:622.757 JLINK_WriteReg(R4, 0x00000000)
T2FF0 000:622.767 - 0.016ms returns 0
T2FF0 000:622.779 JLINK_WriteReg(R5, 0x00000000)
T2FF0 000:622.790 - 0.016ms returns 0
T2FF0 000:622.801 JLINK_WriteReg(R6, 0x00000000)
T2FF0 000:622.812 - 0.016ms returns 0
T2FF0 000:622.823 JLINK_WriteReg(R7, 0x00000000)
T2FF0 000:622.834 - 0.016ms returns 0
T2FF0 000:622.845 JLINK_WriteReg(R8, 0x00000000)
T2FF0 000:622.856 - 0.016ms returns 0
T2FF0 000:622.867 JLINK_WriteReg(R9, 0x1000012C)
T2FF0 000:622.878 - 0.016ms returns 0
T2FF0 000:622.889 JLINK_WriteReg(R10, 0x00000000)
T2FF0 000:622.900 - 0.016ms returns 0
T2FF0 000:622.911 JLINK_WriteReg(R11, 0x00000000)
T2FF0 000:622.922 - 0.015ms returns 0
T2FF0 000:622.933 JLINK_WriteReg(R12, 0x00000000)
T2FF0 000:622.944 - 0.015ms returns 0
T2FF0 000:622.955 JLINK_WriteReg(R13 (SP), 0x10004000)
T2FF0 000:622.966 - 0.016ms returns 0
T2FF0 000:622.977 JLINK_WriteReg(R14, 0x10000001)
T2FF0 000:622.988 - 0.016ms returns 0
T2FF0 000:622.999 JLINK_WriteReg(R15 (PC), 0x10000020)
T2FF0 000:623.010 - 0.016ms returns 0
T2FF0 000:623.022 JLINK_WriteReg(XPSR, 0x01000000)
T2FF0 000:623.032 - 0.016ms returns 0
T2FF0 000:623.044 JLINK_WriteReg(MSP, 0x10004000)
T2FF0 000:623.054 - 0.016ms returns 0
T2FF0 000:623.066 JLINK_WriteReg(PSP, 0x10004000)
T2FF0 000:623.076 - 0.015ms returns 0
T2FF0 000:623.088 JLINK_WriteReg(CFBP, 0x00000000)
T2FF0 000:623.099 - 0.015ms returns 0
T2FF0 000:623.110 JLINK_SetBPEx(Addr = 0x10000000, Type = 0xFFFFFFF2)
T2FF0 000:623.122 - 0.016ms returns 0x00000008
T2FF0 000:623.133 JLINK_Go()
T2FF0 000:623.149   CPU_WriteMem(4 bytes @ 0xE0002000)
T2FF0 000:623.491   CPU_ReadMem(4 bytes @ 0xE0001000)
T2FF0 000:625.604 - 2.478ms
T2FF0 000:625.618 JLINK_IsHalted()
T2FF0 000:627.616 - 2.005ms returns TRUE
T2FF0 000:627.632 JLINK_ReadReg(R15 (PC))
T2FF0 000:627.646 - 0.020ms returns 0x10000000
T2FF0 000:627.659 JLINK_ClrBPEx(BPHandle = 0x00000008)
T2FF0 000:627.673 - 0.019ms returns 0x00
T2FF0 000:627.686 JLINK_ReadReg(R0)
T2FF0 000:627.699 - 0.019ms returns 0x00000001
T2FF0 000:627.713 JLINK_HasError()
T2FF0 000:627.727 JLINK_WriteReg(R0, 0x00012000)
T2FF0 000:627.740 - 0.019ms returns 0
T2FF0 000:627.753 JLINK_WriteReg(R1, 0x00002000)
T2FF0 000:627.766 - 0.019ms returns 0
T2FF0 000:627.780 JLINK_WriteReg(R2, 0x000000FF)
T2FF0 000:627.793 - 0.019ms returns 0
T2FF0 000:627.806 JLINK_WriteReg(R3, 0x00000000)
T2FF0 000:627.819 - 0.019ms returns 0
T2FF0 000:627.833 JLINK_WriteReg(R4, 0x00000000)
T2FF0 000:627.846 - 0.019ms returns 0
T2FF0 000:627.859 JLINK_WriteReg(R5, 0x00000000)
T2FF0 000:627.872 - 0.019ms returns 0
T2FF0 000:627.885 JLINK_WriteReg(R6, 0x00000000)
T2FF0 000:627.898 - 0.019ms returns 0
T2FF0 000:627.912 JLINK_WriteReg(R7, 0x00000000)
T2FF0 000:627.924 - 0.019ms returns 0
T2FF0 000:627.938 JLINK_WriteReg(R8, 0x00000000)
T2FF0 000:627.951 - 0.019ms returns 0
T2FF0 000:627.965 JLINK_WriteReg(R9, 0x1000012C)
T2FF0 000:627.978 - 0.019ms returns 0
T2FF0 000:627.991 JLINK_WriteReg(R10, 0x00000000)
T2FF0 000:628.004 - 0.021ms returns 0
T2FF0 000:628.020 JLINK_WriteReg(R11, 0x00000000)
T2FF0 000:628.034 - 0.019ms returns 0
T2FF0 000:628.048 JLINK_WriteReg(R12, 0x00000000)
T2FF0 000:628.107 - 0.065ms returns 0
T2FF0 000:628.121 JLINK_WriteReg(R13 (SP), 0x10004000)
T2FF0 000:628.134 - 0.020ms returns 0
T2FF0 000:628.148 JLINK_WriteReg(R14, 0x10000001)
T2FF0 000:628.162 - 0.020ms returns 0
T2FF0 000:628.176 JLINK_WriteReg(R15 (PC), 0x1000007C)
T2FF0 000:628.189 - 0.019ms returns 0
T2FF0 000:628.203 JLINK_WriteReg(XPSR, 0x01000000)
T2FF0 000:628.216 - 0.019ms returns 0
T2FF0 000:628.230 JLINK_WriteReg(MSP, 0x10004000)
T2FF0 000:628.243 - 0.019ms returns 0
T2FF0 000:628.257 JLINK_WriteReg(PSP, 0x10004000)
T2FF0 000:628.270 - 0.019ms returns 0
T2FF0 000:628.284 JLINK_WriteReg(CFBP, 0x00000000)
T2FF0 000:628.297 - 0.019ms returns 0
T2FF0 000:628.311 JLINK_SetBPEx(Addr = 0x10000000, Type = 0xFFFFFFF2)
T2FF0 000:628.325 - 0.020ms returns 0x00000009
T2FF0 000:628.339 JLINK_Go()
T2FF0 000:628.354   CPU_WriteMem(4 bytes @ 0xE0002000)
T2FF0 000:628.676   CPU_ReadMem(4 bytes @ 0xE0001000)
T2FF0 000:630.761 - 2.437ms
T2FF0 000:630.785 JLINK_IsHalted()
T2FF0 000:631.083 - 0.304ms returns FALSE
T2FF0 000:631.096 JLINK_HasError()
T2FF0 000:643.291 JLINK_IsHalted()
T2FF0 000:643.646 - 0.371ms returns FALSE
T2FF0 000:643.672 JLINK_HasError()
T2FF0 000:645.279 JLINK_IsHalted()
T2FF0 000:645.618 - 0.345ms returns FALSE
T2FF0 000:645.632 JLINK_HasError()
T2FF0 000:652.018 JLINK_IsHalted()
T2FF0 000:654.018 - 2.025ms returns TRUE
T2FF0 000:654.052 JLINK_ReadReg(R15 (PC))
T2FF0 000:654.065 - 0.017ms returns 0x10000000
T2FF0 000:654.076 JLINK_ClrBPEx(BPHandle = 0x00000009)
T2FF0 000:654.087 - 0.016ms returns 0x00
T2FF0 000:654.098 JLINK_ReadReg(R0)
T2FF0 000:654.109 - 0.015ms returns 0x00000000
T2FF0 000:654.474 JLINK_HasError()
T2FF0 000:654.492 JLINK_WriteReg(R0, 0x00014000)
T2FF0 000:654.505 - 0.017ms returns 0
T2FF0 000:654.516 JLINK_WriteReg(R1, 0x00002000)
T2FF0 000:654.526 - 0.027ms returns 0
T2FF0 000:654.549 JLINK_WriteReg(R2, 0x000000FF)
T2FF0 000:654.560 - 0.015ms returns 0
T2FF0 000:654.571 JLINK_WriteReg(R3, 0x00000000)
T2FF0 000:654.581 - 0.015ms returns 0
T2FF0 000:654.592 JLINK_WriteReg(R4, 0x00000000)
T2FF0 000:654.602 - 0.015ms returns 0
T2FF0 000:654.613 JLINK_WriteReg(R5, 0x00000000)
T2FF0 000:654.624 - 0.016ms returns 0
T2FF0 000:654.636 JLINK_WriteReg(R6, 0x00000000)
T2FF0 000:654.647 - 0.016ms returns 0
T2FF0 000:654.687 JLINK_WriteReg(R7, 0x00000000)
T2FF0 000:654.698 - 0.017ms returns 0
T2FF0 000:654.710 JLINK_WriteReg(R8, 0x00000000)
T2FF0 000:654.721 - 0.016ms returns 0
T2FF0 000:654.732 JLINK_WriteReg(R9, 0x1000012C)
T2FF0 000:654.743 - 0.017ms returns 0
T2FF0 000:654.755 JLINK_WriteReg(R10, 0x00000000)
T2FF0 000:654.766 - 0.015ms returns 0
T2FF0 000:654.776 JLINK_WriteReg(R11, 0x00000000)
T2FF0 000:654.787 - 0.015ms returns 0
T2FF0 000:654.798 JLINK_WriteReg(R12, 0x00000000)
T2FF0 000:654.808 - 0.015ms returns 0
T2FF0 000:654.818 JLINK_WriteReg(R13 (SP), 0x10004000)
T2FF0 000:654.829 - 0.016ms returns 0
T2FF0 000:654.840 JLINK_WriteReg(R14, 0x10000001)
T2FF0 000:654.850 - 0.015ms returns 0
T2FF0 000:654.861 JLINK_WriteReg(R15 (PC), 0x10000020)
T2FF0 000:654.871 - 0.015ms returns 0
T2FF0 000:654.882 JLINK_WriteReg(XPSR, 0x01000000)
T2FF0 000:654.892 - 0.015ms returns 0
T2FF0 000:654.903 JLINK_WriteReg(MSP, 0x10004000)
T2FF0 000:654.914 - 0.015ms returns 0
T2FF0 000:654.924 JLINK_WriteReg(PSP, 0x10004000)
T2FF0 000:654.934 - 0.015ms returns 0
T2FF0 000:654.945 JLINK_WriteReg(CFBP, 0x00000000)
T2FF0 000:654.956 - 0.015ms returns 0
T2FF0 000:654.967 JLINK_SetBPEx(Addr = 0x10000000, Type = 0xFFFFFFF2)
T2FF0 000:654.979 - 0.017ms returns 0x0000000A
T2FF0 000:654.990 JLINK_Go()
T2FF0 000:655.005   CPU_WriteMem(4 bytes @ 0xE0002000)
T2FF0 000:655.324   CPU_ReadMem(4 bytes @ 0xE0001000)
T2FF0 000:657.527 - 2.550ms
T2FF0 000:657.548 JLINK_IsHalted()
T2FF0 000:659.440 - 1.898ms returns TRUE
T2FF0 000:659.453 JLINK_ReadReg(R15 (PC))
T2FF0 000:659.465 - 0.016ms returns 0x10000000
T2FF0 000:659.476 JLINK_ClrBPEx(BPHandle = 0x0000000A)
T2FF0 000:659.487 - 0.016ms returns 0x00
T2FF0 000:659.530 JLINK_ReadReg(R0)
T2FF0 000:659.543 - 0.018ms returns 0x00000001
T2FF0 000:659.555 JLINK_HasError()
T2FF0 000:659.566 JLINK_WriteReg(R0, 0x00014000)
T2FF0 000:659.577 - 0.015ms returns 0
T2FF0 000:659.588 JLINK_WriteReg(R1, 0x00002000)
T2FF0 000:659.598 - 0.015ms returns 0
T2FF0 000:659.609 JLINK_WriteReg(R2, 0x000000FF)
T2FF0 000:659.619 - 0.015ms returns 0
T2FF0 000:659.630 JLINK_WriteReg(R3, 0x00000000)
T2FF0 000:659.640 - 0.015ms returns 0
T2FF0 000:659.651 JLINK_WriteReg(R4, 0x00000000)
T2FF0 000:659.661 - 0.015ms returns 0
T2FF0 000:659.672 JLINK_WriteReg(R5, 0x00000000)
T2FF0 000:659.682 - 0.015ms returns 0
T2FF0 000:659.692 JLINK_WriteReg(R6, 0x00000000)
T2FF0 000:659.703 - 0.015ms returns 0
T2FF0 000:659.713 JLINK_WriteReg(R7, 0x00000000)
T2FF0 000:659.723 - 0.015ms returns 0
T2FF0 000:659.734 JLINK_WriteReg(R8, 0x00000000)
T2FF0 000:659.744 - 0.015ms returns 0
T2FF0 000:659.755 JLINK_WriteReg(R9, 0x1000012C)
T2FF0 000:659.765 - 0.015ms returns 0
T2FF0 000:659.776 JLINK_WriteReg(R10, 0x00000000)
T2FF0 000:659.786 - 0.015ms returns 0
T2FF0 000:659.797 JLINK_WriteReg(R11, 0x00000000)
T2FF0 000:659.807 - 0.015ms returns 0
T2FF0 000:659.818 JLINK_WriteReg(R12, 0x00000000)
T2FF0 000:659.828 - 0.015ms returns 0
T2FF0 000:659.838 JLINK_WriteReg(R13 (SP), 0x10004000)
T2FF0 000:659.849 - 0.015ms returns 0
T2FF0 000:659.860 JLINK_WriteReg(R14, 0x10000001)
T2FF0 000:659.870 - 0.015ms returns 0
T2FF0 000:659.880 JLINK_WriteReg(R15 (PC), 0x1000007C)
T2FF0 000:659.891 - 0.015ms returns 0
T2FF0 000:659.901 JLINK_WriteReg(XPSR, 0x01000000)
T2FF0 000:659.912 - 0.015ms returns 0
T2FF0 000:659.922 JLINK_WriteReg(MSP, 0x10004000)
T2FF0 000:659.932 - 0.015ms returns 0
T2FF0 000:659.943 JLINK_WriteReg(PSP, 0x10004000)
T2FF0 000:659.953 - 0.015ms returns 0
T2FF0 000:659.964 JLINK_WriteReg(CFBP, 0x00000000)
T2FF0 000:659.974 - 0.015ms returns 0
T2FF0 000:659.985 JLINK_SetBPEx(Addr = 0x10000000, Type = 0xFFFFFFF2)
T2FF0 000:659.996 - 0.016ms returns 0x0000000B
T2FF0 000:660.007 JLINK_Go()
T2FF0 000:660.020   CPU_WriteMem(4 bytes @ 0xE0002000)
T2FF0 000:660.365   CPU_ReadMem(4 bytes @ 0xE0001000)
T2FF0 000:662.522 - 2.527ms
T2FF0 000:662.543 JLINK_IsHalted()
T2FF0 000:662.802 - 0.272ms returns FALSE
T2FF0 000:662.824 JLINK_HasError()
T2FF0 000:688.552 JLINK_IsHalted()
T2FF0 000:690.550 - 2.005ms returns TRUE
T2FF0 000:690.566 JLINK_ReadReg(R15 (PC))
T2FF0 000:690.579 - 0.018ms returns 0x10000000
T2FF0 000:690.591 JLINK_ClrBPEx(BPHandle = 0x0000000B)
T2FF0 000:690.603 - 0.017ms returns 0x00
T2FF0 000:690.615 JLINK_ReadReg(R0)
T2FF0 000:690.626 - 0.016ms returns 0x00000000
T2FF0 000:690.983 JLINK_HasError()
T2FF0 000:691.003 JLINK_WriteReg(R0, 0x00016000)
T2FF0 000:691.016 - 0.018ms returns 0
T2FF0 000:691.028 JLINK_WriteReg(R1, 0x00002000)
T2FF0 000:691.039 - 0.016ms returns 0
T2FF0 000:691.051 JLINK_WriteReg(R2, 0x000000FF)
T2FF0 000:691.062 - 0.016ms returns 0
T2FF0 000:691.073 JLINK_WriteReg(R3, 0x00000000)
T2FF0 000:691.084 - 0.016ms returns 0
T2FF0 000:691.096 JLINK_WriteReg(R4, 0x00000000)
T2FF0 000:691.107 - 0.016ms returns 0
T2FF0 000:691.118 JLINK_WriteReg(R5, 0x00000000)
T2FF0 000:691.129 - 0.016ms returns 0
T2FF0 000:691.141 JLINK_WriteReg(R6, 0x00000000)
T2FF0 000:691.152 - 0.016ms returns 0
T2FF0 000:691.163 JLINK_WriteReg(R7, 0x00000000)
T2FF0 000:691.174 - 0.016ms returns 0
T2FF0 000:691.186 JLINK_WriteReg(R8, 0x00000000)
T2FF0 000:691.210 - 0.029ms returns 0
T2FF0 000:691.222 JLINK_WriteReg(R9, 0x1000012C)
T2FF0 000:691.233 - 0.016ms returns 0
T2FF0 000:691.244 JLINK_WriteReg(R10, 0x00000000)
T2FF0 000:691.255 - 0.016ms returns 0
T2FF0 000:691.267 JLINK_WriteReg(R11, 0x00000000)
T2FF0 000:691.278 - 0.016ms returns 0
T2FF0 000:691.289 JLINK_WriteReg(R12, 0x00000000)
T2FF0 000:691.300 - 0.016ms returns 0
T2FF0 000:691.312 JLINK_WriteReg(R13 (SP), 0x10004000)
T2FF0 000:691.324 - 0.017ms returns 0
T2FF0 000:691.335 JLINK_WriteReg(R14, 0x10000001)
T2FF0 000:691.346 - 0.016ms returns 0
T2FF0 000:691.358 JLINK_WriteReg(R15 (PC), 0x10000020)
T2FF0 000:691.409 - 0.058ms returns 0
T2FF0 000:691.423 JLINK_WriteReg(XPSR, 0x01000000)
T2FF0 000:691.434 - 0.016ms returns 0
T2FF0 000:691.445 JLINK_WriteReg(MSP, 0x10004000)
T2FF0 000:691.456 - 0.016ms returns 0
T2FF0 000:691.468 JLINK_WriteReg(PSP, 0x10004000)
T2FF0 000:691.482 - 0.019ms returns 0
T2FF0 000:691.494 JLINK_WriteReg(CFBP, 0x00000000)
T2FF0 000:691.505 - 0.016ms returns 0
T2FF0 000:691.516 JLINK_SetBPEx(Addr = 0x10000000, Type = 0xFFFFFFF2)
T2FF0 000:691.528 - 0.017ms returns 0x0000000C
T2FF0 000:691.541 JLINK_Go()
T2FF0 000:691.557   CPU_WriteMem(4 bytes @ 0xE0002000)
T2FF0 000:691.900   CPU_ReadMem(4 bytes @ 0xE0001000)
T2FF0 000:694.183 - 2.653ms
T2FF0 000:694.202 JLINK_IsHalted()
T2FF0 000:696.108 - 1.920ms returns TRUE
T2FF0 000:696.138 JLINK_ReadReg(R15 (PC))
T2FF0 000:696.151 - 0.018ms returns 0x10000000
T2FF0 000:696.168 JLINK_ClrBPEx(BPHandle = 0x0000000C)
T2FF0 000:696.180 - 0.017ms returns 0x00
T2FF0 000:696.219 JLINK_ReadReg(R0)
T2FF0 000:696.237 - 0.023ms returns 0x00000001
T2FF0 000:696.256 JLINK_HasError()
T2FF0 000:696.305 JLINK_WriteReg(R0, 0x00016000)
T2FF0 000:696.318 - 0.018ms returns 0
T2FF0 000:696.330 JLINK_WriteReg(R1, 0x00002000)
T2FF0 000:696.342 - 0.016ms returns 0
T2FF0 000:696.354 JLINK_WriteReg(R2, 0x000000FF)
T2FF0 000:696.364 - 0.015ms returns 0
T2FF0 000:696.376 JLINK_WriteReg(R3, 0x00000000)
T2FF0 000:696.387 - 0.016ms returns 0
T2FF0 000:696.398 JLINK_WriteReg(R4, 0x00000000)
T2FF0 000:696.409 - 0.016ms returns 0
T2FF0 000:696.421 JLINK_WriteReg(R5, 0x00000000)
T2FF0 000:696.432 - 0.016ms returns 0
T2FF0 000:696.443 JLINK_WriteReg(R6, 0x00000000)
T2FF0 000:696.454 - 0.016ms returns 0
T2FF0 000:696.465 JLINK_WriteReg(R7, 0x00000000)
T2FF0 000:696.476 - 0.017ms returns 0
T2FF0 000:696.489 JLINK_WriteReg(R8, 0x00000000)
T2FF0 000:696.554 - 0.109ms returns 0
T2FF0 000:696.610 JLINK_WriteReg(R9, 0x1000012C)
T2FF0 000:696.624 - 0.020ms returns 0
T2FF0 000:696.636 JLINK_WriteReg(R10, 0x00000000)
T2FF0 000:696.648 - 0.016ms returns 0
T2FF0 000:696.659 JLINK_WriteReg(R11, 0x00000000)
T2FF0 000:696.670 - 0.016ms returns 0
T2FF0 000:696.682 JLINK_WriteReg(R12, 0x00000000)
T2FF0 000:696.692 - 0.016ms returns 0
T2FF0 000:696.704 JLINK_WriteReg(R13 (SP), 0x10004000)
T2FF0 000:696.716 - 0.016ms returns 0
T2FF0 000:696.728 JLINK_WriteReg(R14, 0x10000001)
T2FF0 000:696.739 - 0.016ms returns 0
T2FF0 000:696.750 JLINK_WriteReg(R15 (PC), 0x1000007C)
T2FF0 000:696.761 - 0.016ms returns 0
T2FF0 000:696.772 JLINK_WriteReg(XPSR, 0x01000000)
T2FF0 000:696.784 - 0.016ms returns 0
T2FF0 000:696.795 JLINK_WriteReg(MSP, 0x10004000)
T2FF0 000:696.806 - 0.016ms returns 0
T2FF0 000:696.818 JLINK_WriteReg(PSP, 0x10004000)
T2FF0 000:696.829 - 0.016ms returns 0
T2FF0 000:696.840 JLINK_WriteReg(CFBP, 0x00000000)
T2FF0 000:696.851 - 0.016ms returns 0
T2FF0 000:696.863 JLINK_SetBPEx(Addr = 0x10000000, Type = 0xFFFFFFF2)
T2FF0 000:696.876 - 0.018ms returns 0x0000000D
T2FF0 000:696.887 JLINK_Go()
T2FF0 000:696.902   CPU_WriteMem(4 bytes @ 0xE0002000)
T2FF0 000:697.299   CPU_ReadMem(4 bytes @ 0xE0001000)
T2FF0 000:699.520 - 2.640ms
T2FF0 000:699.536 JLINK_IsHalted()
T2FF0 000:699.766 - 0.235ms returns FALSE
T2FF0 000:699.779 JLINK_HasError()
T2FF0 000:706.621 JLINK_IsHalted()
T2FF0 000:706.956 - 0.348ms returns FALSE
T2FF0 000:706.979 JLINK_HasError()
T2FF0 000:708.543 JLINK_IsHalted()
T2FF0 000:708.837 - 0.304ms returns FALSE
T2FF0 000:708.854 JLINK_HasError()
T2FF0 000:713.601 JLINK_IsHalted()
T2FF0 000:713.895 - 0.300ms returns FALSE
T2FF0 000:713.908 JLINK_HasError()
T2FF0 000:715.597 JLINK_IsHalted()
T2FF0 000:717.628 - 2.038ms returns TRUE
T2FF0 000:717.643 JLINK_ReadReg(R15 (PC))
T2FF0 000:717.655 - 0.017ms returns 0x10000000
T2FF0 000:717.666 JLINK_ClrBPEx(BPHandle = 0x0000000D)
T2FF0 000:717.677 - 0.015ms returns 0x00
T2FF0 000:717.688 JLINK_ReadReg(R0)
T2FF0 000:717.699 - 0.015ms returns 0x00000000
T2FF0 000:718.048 JLINK_HasError()
T2FF0 000:718.064 JLINK_WriteReg(R0, 0x00018000)
T2FF0 000:718.115 - 0.058ms returns 0
T2FF0 000:718.128 JLINK_WriteReg(R1, 0x00002000)
T2FF0 000:718.139 - 0.015ms returns 0
T2FF0 000:718.150 JLINK_WriteReg(R2, 0x000000FF)
T2FF0 000:718.160 - 0.015ms returns 0
T2FF0 000:718.171 JLINK_WriteReg(R3, 0x00000000)
T2FF0 000:718.181 - 0.015ms returns 0
T2FF0 000:718.192 JLINK_WriteReg(R4, 0x00000000)
T2FF0 000:718.202 - 0.015ms returns 0
T2FF0 000:718.213 JLINK_WriteReg(R5, 0x00000000)
T2FF0 000:718.223 - 0.015ms returns 0
T2FF0 000:718.234 JLINK_WriteReg(R6, 0x00000000)
T2FF0 000:718.244 - 0.015ms returns 0
T2FF0 000:718.255 JLINK_WriteReg(R7, 0x00000000)
T2FF0 000:718.265 - 0.015ms returns 0
T2FF0 000:718.276 JLINK_WriteReg(R8, 0x00000000)
T2FF0 000:718.286 - 0.015ms returns 0
T2FF0 000:718.297 JLINK_WriteReg(R9, 0x1000012C)
T2FF0 000:718.307 - 0.015ms returns 0
T2FF0 000:718.318 JLINK_WriteReg(R10, 0x00000000)
T2FF0 000:718.328 - 0.015ms returns 0
T2FF0 000:718.339 JLINK_WriteReg(R11, 0x00000000)
T2FF0 000:718.349 - 0.015ms returns 0
T2FF0 000:718.360 JLINK_WriteReg(R12, 0x00000000)
T2FF0 000:718.370 - 0.015ms returns 0
T2FF0 000:718.381 JLINK_WriteReg(R13 (SP), 0x10004000)
T2FF0 000:718.391 - 0.015ms returns 0
T2FF0 000:718.402 JLINK_WriteReg(R14, 0x10000001)
T2FF0 000:718.413 - 0.015ms returns 0
T2FF0 000:718.423 JLINK_WriteReg(R15 (PC), 0x10000020)
T2FF0 000:718.434 - 0.015ms returns 0
T2FF0 000:718.445 JLINK_WriteReg(XPSR, 0x01000000)
T2FF0 000:718.455 - 0.015ms returns 0
T2FF0 000:718.466 JLINK_WriteReg(MSP, 0x10004000)
T2FF0 000:718.476 - 0.015ms returns 0
T2FF0 000:718.487 JLINK_WriteReg(PSP, 0x10004000)
T2FF0 000:718.498 - 0.015ms returns 0
T2FF0 000:718.508 JLINK_WriteReg(CFBP, 0x00000000)
T2FF0 000:718.518 - 0.015ms returns 0
T2FF0 000:718.542 JLINK_SetBPEx(Addr = 0x10000000, Type = 0xFFFFFFF2)
T2FF0 000:718.554 - 0.016ms returns 0x0000000E
T2FF0 000:718.565 JLINK_Go()
T2FF0 000:718.580   CPU_WriteMem(4 bytes @ 0xE0002000)
T2FF0 000:718.897   CPU_ReadMem(4 bytes @ 0xE0001000)
T2FF0 000:720.981 - 2.421ms
T2FF0 000:720.999 JLINK_IsHalted()
T2FF0 000:722.886 - 1.901ms returns TRUE
T2FF0 000:722.932 JLINK_ReadReg(R15 (PC))
T2FF0 000:722.956 - 0.092ms returns 0x10000000
T2FF0 000:723.104 JLINK_ClrBPEx(BPHandle = 0x0000000E)
T2FF0 000:723.120 - 0.022ms returns 0x00
T2FF0 000:723.133 JLINK_ReadReg(R0)
T2FF0 000:723.147 - 0.019ms returns 0x00000001
T2FF0 000:723.160 JLINK_HasError()
T2FF0 000:723.173 JLINK_WriteReg(R0, 0x00018000)
T2FF0 000:723.186 - 0.018ms returns 0
T2FF0 000:723.237 JLINK_WriteReg(R1, 0x00002000)
T2FF0 000:723.256 - 0.025ms returns 0
T2FF0 000:723.270 JLINK_WriteReg(R2, 0x000000FF)
T2FF0 000:723.283 - 0.018ms returns 0
T2FF0 000:723.296 JLINK_WriteReg(R3, 0x00000000)
T2FF0 000:723.308 - 0.018ms returns 0
T2FF0 000:723.321 JLINK_WriteReg(R4, 0x00000000)
T2FF0 000:723.333 - 0.018ms returns 0
T2FF0 000:723.346 JLINK_WriteReg(R5, 0x00000000)
T2FF0 000:723.358 - 0.018ms returns 0
T2FF0 000:723.371 JLINK_WriteReg(R6, 0x00000000)
T2FF0 000:723.383 - 0.018ms returns 0
T2FF0 000:723.396 JLINK_WriteReg(R7, 0x00000000)
T2FF0 000:723.437 - 0.047ms returns 0
T2FF0 000:723.453 JLINK_WriteReg(R8, 0x00000000)
T2FF0 000:723.466 - 0.019ms returns 0
T2FF0 000:723.479 JLINK_WriteReg(R9, 0x1000012C)
T2FF0 000:723.491 - 0.018ms returns 0
T2FF0 000:723.504 JLINK_WriteReg(R10, 0x00000000)
T2FF0 000:723.517 - 0.018ms returns 0
T2FF0 000:723.529 JLINK_WriteReg(R11, 0x00000000)
T2FF0 000:723.541 - 0.018ms returns 0
T2FF0 000:723.554 JLINK_WriteReg(R12, 0x00000000)
T2FF0 000:723.567 - 0.018ms returns 0
T2FF0 000:723.579 JLINK_WriteReg(R13 (SP), 0x10004000)
T2FF0 000:723.592 - 0.018ms returns 0
T2FF0 000:723.605 JLINK_WriteReg(R14, 0x10000001)
T2FF0 000:723.617 - 0.018ms returns 0
T2FF0 000:723.629 JLINK_WriteReg(R15 (PC), 0x1000007C)
T2FF0 000:723.642 - 0.018ms returns 0
T2FF0 000:723.654 JLINK_WriteReg(XPSR, 0x01000000)
T2FF0 000:723.666 - 0.018ms returns 0
T2FF0 000:723.679 JLINK_WriteReg(MSP, 0x10004000)
T2FF0 000:723.691 - 0.018ms returns 0
T2FF0 000:723.704 JLINK_WriteReg(PSP, 0x10004000)
T2FF0 000:723.748 - 0.051ms returns 0
T2FF0 000:723.762 JLINK_WriteReg(CFBP, 0x00000000)
T2FF0 000:723.773 - 0.016ms returns 0
T2FF0 000:723.785 JLINK_SetBPEx(Addr = 0x10000000, Type = 0xFFFFFFF2)
T2FF0 000:723.798 - 0.018ms returns 0x0000000F
T2FF0 000:723.810 JLINK_Go()
T2FF0 000:723.825   CPU_WriteMem(4 bytes @ 0xE0002000)
T2FF0 000:724.120   CPU_ReadMem(4 bytes @ 0xE0001000)
T2FF0 000:726.343 - 2.547ms
T2FF0 000:726.365 JLINK_IsHalted()
T2FF0 000:726.681 - 0.321ms returns FALSE
T2FF0 000:726.694 JLINK_HasError()
T2FF0 000:732.596 JLINK_IsHalted()
T2FF0 000:732.930 - 0.340ms returns FALSE
T2FF0 000:732.944 JLINK_HasError()
T2FF0 000:735.608 JLINK_IsHalted()
T2FF0 000:736.017 - 0.424ms returns FALSE
T2FF0 000:736.043 JLINK_HasError()
T2FF0 000:737.647 JLINK_IsHalted()
T2FF0 000:738.003 - 0.365ms returns FALSE
T2FF0 000:738.020 JLINK_HasError()
T2FF0 000:741.598 JLINK_IsHalted()
T2FF0 000:743.589 - 2.007ms returns TRUE
T2FF0 000:743.615 JLINK_ReadReg(R15 (PC))
T2FF0 000:743.629 - 0.019ms returns 0x10000000
T2FF0 000:743.641 JLINK_ClrBPEx(BPHandle = 0x0000000F)
T2FF0 000:743.652 - 0.016ms returns 0x00
T2FF0 000:743.664 JLINK_ReadReg(R0)
T2FF0 000:743.675 - 0.016ms returns 0x00000000
T2FF0 000:744.107 JLINK_HasError()
T2FF0 000:744.125 JLINK_WriteReg(R0, 0x0001A000)
T2FF0 000:744.138 - 0.018ms returns 0
T2FF0 000:744.150 JLINK_WriteReg(R1, 0x00002000)
T2FF0 000:744.161 - 0.016ms returns 0
T2FF0 000:744.172 JLINK_WriteReg(R2, 0x000000FF)
T2FF0 000:744.183 - 0.016ms returns 0
T2FF0 000:744.194 JLINK_WriteReg(R3, 0x00000000)
T2FF0 000:744.205 - 0.016ms returns 0
T2FF0 000:744.216 JLINK_WriteReg(R4, 0x00000000)
T2FF0 000:744.227 - 0.016ms returns 0
T2FF0 000:744.238 JLINK_WriteReg(R5, 0x00000000)
T2FF0 000:744.249 - 0.016ms returns 0
T2FF0 000:744.260 JLINK_WriteReg(R6, 0x00000000)
T2FF0 000:744.271 - 0.016ms returns 0
T2FF0 000:744.282 JLINK_WriteReg(R7, 0x00000000)
